period_nm,fill,kx_norm,mode_index,freq_thz_real,freq_thz_imag,wavelength_nm,q_value,score
480.0,0.25,0.0,1,298.9859506125502,11.864993419841465,1002.6974758706804,12.599499217275804,101.69394303180303
480.0,0.25,0.0,2,294.8415987509543,15.7968758375621,1016.7915900267099,9.332275627876829,117.09171445513455
480.0,0.25,0.0,3,328.51781666676777,15.518052933657872,912.5607281875207,10.585020494234469,147.19235478030495
480.0,0.25,0.0,4,330.9302301325944,12.642645762826152,905.9083477501637,13.087855040028339,152.9229674883857
480.0,0.25,0.0,5,352.14415497909073,0.23206243362854478,851.3344712985531,758.7271870611274,189.86467223962413
480.0,0.25,0.0,6,352.1441566113953,0.231948355668854,851.3344673523364,759.1003514466414,189.86254072271834
480.0,0.25,0.0,7,267.6059132914529,12.41728658548655,1120.275909873084,10.775539061981279,219.9515198172037
480.0,0.25,0.0,8,261.0649315718433,18.405126406757933,1148.3444221902287,7.092179803665634,249.8366248155395
480.0,0.35,0.0,1,297.11872971775597,11.447245270025995,1008.9988547163753,12.977739303609821,107.86686425820098
480.0,0.35,0.0,2,295.43344191475575,15.148371292598473,1014.7546467894518,9.751326931731109,114.86400961716625
480.0,0.35,0.0,3,327.73370664915666,12.766647235231167,914.7440495674491,12.83554329537415,144.1718078729559
480.0,0.35,0.0,4,327.90961769475706,14.667334914704872,914.253324155528,11.178227660364128,145.26294634057894
480.0,0.35,0.0,5,352.14415847987704,0.23206488771932265,851.3344628351441,758.7191710488052,189.86472658682862
480.0,0.35,0.0,6,352.1441584868568,0.23194044401615313,851.33446281827,759.126248939862,189.86239709526
480.0,0.35,0.0,7,266.2724873232058,11.415414467227096,1125.8859712235578,11.6628479889038,225.21792507195568
480.0,0.35,0.0,8,263.5716123683189,17.810860411117094,1137.4231667296006,7.399182473065817,238.73132935262862
480.0,0.45,0.0,1,294.96624219353083,14.009938168979966,1016.3619259294854,10.52703583112982,116.1388649179219
480.0,0.45,0.0,2,294.849560507334,11.576826955520682,1016.7641338320498,12.734472133002216,115.71432435827263
480.0,0.45,0.0,3,324.0999161320201,12.655437939791337,925.0001097744233,12.804768893575083,133.92617278031298
480.0,0.45,0.0,4,326.32856309407344,13.418928261651022,918.682861094131,12.159263270922466,140.46806628731264
480.0,0.45,0.0,5,352.14415390693875,0.2319417563728233,851.3344738905597,759.1219438316705,189.86241065247083
480.0,0.45,0.0,6,352.14415559849846,0.23206300534161609,851.3344698010894,758.7253191867288,189.8646844287904
480.0,0.45,0.0,7,264.77099573753287,11.228124191119838,1132.2707654020528,11.790526682405973,231.5554333475788
480.0,0.45,0.0,8,264.2551246916028,16.014730607710113,1134.4811509327237,8.250376830078556,235.31641308178658
480.0,0.55,0.0,1,293.72336070367237,12.88070434681344,1020.6626305847375,11.401680870671356,120.09294177396413
480.0,0.55,0.0,2,292.437249914682,11.638174686761031,1025.1514062844724,12.563707702692549,124.16022804555885
480.0,0.55,0.0,3,321.07267689483916,11.944000995403933,933.7214891636229,13.440750591798693,124.99427561290877
480.0,0.55,0.0,4,324.22192547809846,12.043512689406992,924.6520190080461,13.46043857135101,134.05738888786286
480.0,0.55,0.0,5,350.8896950851397,10.604563209041615,854.3780629615198,16.544278541617146,203.43545870534444
480.0,0.55,0.0,6,352.14415150644163,0.23194265065150516,851.3344796939386,759.1190117843823,189.8624216233984
480.0,0.55,0.0,7,263.72779176876134,14.482768881543059,1136.7495855835339,9.104881598464845,237.15684255830104
480.0,0.55,0.0,8,263.15955526286695,11.34598117941675,1139.2041520230603,11.597038242063913,238.56068113024344
480.0,0.65,0.0,1,318.9095157632251,11.056114734445467,940.0549158356924,14.422313960330857,118.35473470916911
480.0,0.65,0.0,2,292.1356824973255,11.94097912373347,1026.2096551753639,12.23248443323575,125.33450845776728
480.0,0.65,0.0,3,322.07620217157233,10.850796989249215,930.8121990344956,14.841131139522744,127.4731309392738
480.0,0.65,0.0,4,290.16994032215723,11.41069260578179,1033.1616626696737,12.714825924551167,132.11855848230266
480.0,0.65,0.0,5,349.3992512058872,9.763163764268628,858.022611569205,17.893751433558034,199.45037442920324
480.0,0.65,0.0,6,352.1441543422609,0.23206079252344003,851.3344728381363,758.7325513134483,189.86463999523707
480.0,0.65,0.0,7,262.679562123567,13.358241288682384,1141.2858144592717,9.83211623621888,241.35934441747506
480.0,0.65,0.0,8,261.45705903453376,11.505556672977782,1146.6221608512885,11.362208125426816,246.06753344995167
480.0,0.75,0.0,1,317.3771339868535,10.252479617887442,944.5937526564787,15.478067053804596,113.50908010581603
480.0,0.75,0.0,2,320.12212835347145,10.057268009732432,936.4940172738578,15.914964583010457,121.48792596130349
480.0,0.75,0.0,3,290.44757188036937,11.2459386038672,1032.174089317158,12.913442893085492,131.06366885411637
480.0,0.75,0.0,4,288.2192378226338,10.955007932605348,1040.1542251821797,13.154679558232358,138.96342244875422
480.0,0.75,0.0,5,346.826103305907,9.883598572856337e-11,864.3883927490242,1754553772845.4863,115.6116072509758
480.0,0.75,0.0,6,348.3857640450335,9.191502790069537,860.5186805544896,18.951512717889184,196.7048806329119
480.0,0.75,0.0,7,261.38366693367533,12.560047559673157,1146.9441129084423,10.40536135280674,246.7715412404719
480.0,0.75,0.0,8,259.716025133355,11.565234296918597,1154.3086640343704,11.228307981730767,253.80552087029696
520.0,0.25,0.0,1,299.1766057367636,11.515052175422861,1002.0584907089237,12.99067521271466,100.92217346029113
520.0,0.25,0.0,2,294.81032685861027,15.763163577778311,1016.8994458046211,9.351242388749016,117.190752661956
520.0,0.25,0.0,3,325.0425040959243,0.2542440656625536,922.3177099064168,639.2332172018878,119.62569674728452
520.0,0.25,0.0,4,325.04250467655527,0.2541622309733966,922.3177082588593,639.4390374834603,119.62430027874159
520.0,0.25,0.0,5,325.4426347189097,0.9679204105336506,921.1837233893335,168.11435691261073,126.56022857432784
520.0,0.25,0.0,6,325.44269435063785,0.9682431841211027,921.1835545983962,168.05834509749218,126.56184457512526
520.0,0.25,0.0,7,326.0964127825527,2.292441586211931,919.336877832837,71.12425780963952,132.14294469205754
520.0,0.25,0.0,8,326.09664278663314,2.2929672281271127,919.3362294016498,71.10800337364344,132.14458575485048
520.0,0.35,0.0,1,297.24444072791067,11.21916415165194,1008.5721275925281,13.247174063503813,107.35089516415611
520.0,0.35,0.0,2,295.3189573801702,15.019901571949115,1015.148030656464,9.83092185942491,115.22208821497922
520.0,0.35,0.0,3,325.0425040902052,0.25424414291477687,922.3177099226448,639.2330229592744,119.62569805073932
520.0,0.35,0.0,4,325.0425046722257,0.25416233987496206,922.3177082711446,639.4387634929193,119.62430212734678
520.0,0.35,0.0,5,325.4426345768558,0.9679186963759805,921.183723791425,168.11465456518062,126.56022048290177
520.0,0.35,0.0,6,325.442694497759,0.9682413050323933,921.1835541819618,168.05867132825483,126.56183656114928
520.0,0.35,0.0,7,326.0964129513818,2.2924426579713812,919.3368773568708,71.12422459455314,132.142947196183
520.0,0.35,0.0,8,326.09664282607355,2.2929679171769592,919.3362292904587,71.10798201388596,132.14458717059597
520.0,0.45,0.0,1,294.89923239460944,11.504394742965854,1016.5928733203444,12.816807793166173,115.51507460552479
520.0,0.45,0.0,2,294.6961135099744,13.771569069609999,1017.2935585384065,10.699438532399562,116.99994865751563
520.0,0.45,0.0,3,325.0425040973249,0.25424403536779194,922.3177099024425,639.2332933732648,119.62569623375116
520.0,0.45,0.0,4,325.0425046788373,0.25416219483238517,922.3177082523839,639.4391284140355,119.62429966763432
520.0,0.45,0.0,5,325.4426346766026,0.9679211779269564,921.183723509086,168.11422360528303,126.5602318983419
520.0,0.45,0.0,6,325.4426943858215,0.9682437218823564,921.183554498807,168.05825177628336,126.56184708631132
520.0,0.45,0.0,7,326.09641298662524,2.2924411968876277,919.3368772575119,71.12426993315154,132.14294452710442
520.0,0.45,0.0,8,326.0966421965526,2.29296740035001,919.3362310652133,71.10799790410792,132.1445844253407
520.0,0.55,0.0,1,293.32919744641504,12.531495297505986,1022.0341534693819,11.703679029620405,121.35092944071799
520.0,0.55,0.0,2,320.70812493948506,12.136788076734678,934.7828592012389,13.212232219587763,124.00737881584004
520.0,0.55,0.0,3,292.40137954800144,11.66574073342273,1025.277166829458,12.53248234423134,124.29679581494615
520.0,0.55,0.0,4,325.04250408429823,0.2542441847220533,922.3177099394061,639.2329178337817,119.62569874819997
520.0,0.55,0.0,5,325.0425046729933,0.25416230853540545,922.3177082689664,639.4388423406102,119.62430159400674
520.0,0.55,0.0,6,325.4426345163074,0.9679190091790433,921.1837239628106,168.11460020417258,126.56022171583686
520.0,0.55,0.0,7,325.4426943693389,0.9682406369866536,921.183554545462,168.05878721542692,126.56183320291262
520.0,0.55,0.0,8,326.0964122528125,2.2924428630131906,919.3368793262899,71.12421808066154,132.1429456245112
520.0,0.65,0.0,1,318.5544221641891,11.191352798912863,941.102797956078,14.232167812417355,117.36449148491627
520.0,0.65,0.0,2,321.53830816089857,9.940830770564775,932.3693332676961,16.17260748030171,125.54286627163614
520.0,0.65,0.0,3,291.67865327423135,11.523245508127168,1027.8176158408828,12.656098191629905,126.79461748472163
520.0,0.65,0.0,4,290.08332574358076,11.469126570893875,1033.4701494183835,12.646269266909503,132.45052517177217
520.0,0.65,0.0,5,325.0425040662474,0.2542443662859819,922.3177099906259,639.2324613018751,119.62570179865646
520.0,0.65,0.0,6,325.04250453339637,0.25416234148587,922.3177086650768,639.4387591669769,119.62430176279558
520.0,0.65,0.0,7,325.4426358415023,0.9679182396337832,921.1837202117717,168.11473454856846,126.56022199632612
520.0,0.65,0.0,8,325.44269392624165,0.9682368614370471,921.1835557996734,168.05944231622362,126.5618150197378
520.0,0.75,0.0,1,317.08875396478544,10.358327033929688,945.452824332249,15.30598295101762,112.69856341532036
520.0,0.75,0.0,2,319.6653919670643,9.148048979782818,937.8320754562262,17.471779647962347,119.74455310589313
520.0,0.75,0.0,3,323.31876678529693,2.1630290715656568e-09,927.2349420999745,74737499147.72768,52.765057900025454
520.0,0.75,0.0,4,290.01919804332846,10.849199800099047,1033.6986655456217,13.365925754297601,132.43867510208162
520.0,0.75,0.0,5,325.0425040959363,0.25424405345448453,922.3177099063827,639.2332478960541,119.62569653878273
520.0,0.75,0.0,6,325.0425046872046,0.2541622676246254,922.3177082286414,639.43894529471,119.62430093508743
520.0,0.75,0.0,7,325.44263451706183,0.9679204160422141,921.1837239606753,168.1143558515808,126.56022803039599
520.0,0.75,0.0,8,325.4426945807166,0.9682433174601169,921.1835539471458,168.05832207260337,126.56184582138228
560.0,0.25,0.0,1,303.9697409749289,4.172511707017759,986.2575697122646,36.42527119380892,80.64354177358594
560.0,0.25,0.0,2,303.9692651974394,4.1725623351497525,986.2591134181725,36.424772212124424,80.645144972936
560.0,0.25,0.0,3,302.95059849709617,2.4855306205427636,989.5753944281234,60.94284174035664,81.72616741475387
560.0,0.25,0.0,4,302.9504093527349,2.4853008181060523,989.5760122606141,60.94843874545561,81.72638640847252
560.0,0.25,0.0,5,302.23893716029454,1.0453365079317956,991.9054798720489,144.5653791228798,80.30483687718966
560.0,0.25,0.0,6,302.23888390317103,1.0451959270796238,991.9056546544331,144.5847979658967,80.30442832973019
560.0,0.25,0.0,7,301.8061935960949,0.27647964587742146,993.3277194477,545.801830435471,75.95736956956293
560.0,0.25,0.0,8,301.8061931087848,0.2764360875177377,993.3277210515724,545.8878321909024,75.95668691142988
560.0,0.35,0.0,1,303.9697418467171,4.172531959361703,986.2575668836683,36.42509449984143,80.64356001206717
560.0,0.35,0.0,2,303.9692648728184,4.172569315612577,986.2591144714384,36.424711236725436,80.6451532963369
560.0,0.35,0.0,3,302.95059858974435,2.4855284788793344,989.5753941254918,60.94289427058538,81.72616336868363
560.0,0.35,0.0,4,302.95040938858904,2.485300247084367,989.5760121434976,60.94845275616009,81.72638529300869
560.0,0.35,0.0,5,302.23893713456977,1.0453416184911934,991.9054799564741,144.56467234644785,80.30485819421264
560.0,0.35,0.0,6,302.2388838282712,1.0451978797911292,991.9056549002437,144.58452780667244,80.30443669041675
560.0,0.35,0.0,7,301.80619361170056,0.27647940335614324,993.3277193963374,545.802309228317,75.95736570844765
560.0,0.35,0.0,8,301.80619311315894,0.27643602236760634,993.327721037176,545.8879608530453,75.9566858734303
560.0,0.45,0.0,1,303.9697417567148,4.1725200519427155,986.2575671756889,36.42519843795445,80.64354791161898
560.0,0.45,0.0,2,303.9692643454697,4.172557443509532,986.2591161824749,36.42481481211216,80.64514265802234
560.0,0.45,0.0,3,302.9505985225578,2.485529770519509,989.5753943449541,60.94286258724575,81.72616584598148
560.0,0.45,0.0,4,302.9504093388571,2.4853015184409237,989.5760123059451,60.94842156796001,81.72638767780417
560.0,0.45,0.0,5,302.23893719022766,1.0453384830222772,991.9054797738125,144.5651059915043,80.30484498420702
560.0,0.45,0.0,6,302.23888385132926,1.0451948313749508,991.9056548245704,144.58494951306585,80.3044239477939
560.0,0.45,0.0,7,301.8061936020839,0.27647954989349044,993.3277194279885,545.8020199294128,75.95736804204854
560.0,0.45,0.0,8,301.8061931039551,0.27643616675149324,993.3277210674685,545.8876757165943,75.95668817219592
560.0,0.55,0.0,1,303.9697413483637,4.172520834704203,986.2575685006215,36.4251915556837,80.64355005711877
560.0,0.55,0.0,2,303.9692649536825,4.172559508446229,986.2591142090666,36.42479685890377,80.64514282518257
560.0,0.55,0.0,3,302.95059854184984,2.4855296727623886,989.5753942819376,60.94286498803977,81.72616561187823
560.0,0.55,0.0,4,302.95040932896444,2.4853012561890537,989.5760123382593,60.94842799731788,81.72638725198755
560.0,0.55,0.0,5,302.23893715467193,1.0453387867538462,991.9054798905015,144.56506396994644,80.30484636328453
560.0,0.55,0.0,6,302.2388838855264,1.0451952823942003,991.9056547123403,144.58488713860055,80.3044257091261
560.0,0.55,0.0,7,301.80619360304104,0.27647953872175635,993.3277194248382,545.802041985416,75.95736786339863
560.0,0.55,0.0,8,301.806193105543,0.276436136723355,993.3277210622421,545.8877350170344,75.95668769519017
560.0,0.65,0.0,1,303.9697418938711,4.172525078872101,986.2575667306728,36.425154570435666,80.64355269689224
560.0,0.65,0.0,2,303.96926447562583,4.172562434514617,986.2591157601702,36.42477125821435,80.64514742866882
560.0,0.65,0.0,3,302.95059854547264,2.485529246654772,989.5753942701036,60.94287543653093,81.72616485545802
560.0,0.65,0.0,4,302.95040936292577,2.4853009876091012,989.5760122273259,60.94843459068691,81.72638667123675
560.0,0.65,0.0,5,302.23893717395885,1.0453397889713802,991.9054798272045,144.56492537769157,80.3048504635025
560.0,0.65,0.0,6,302.23888383490544,1.0451961313538136,991.905654878471,144.5847696754406,80.3044294035386
560.0,0.65,0.0,7,301.80619360591453,0.27647949040556624,993.3277194153811,545.8021373722815,75.95736709494872
560.0,0.65,0.0,8,301.80619310783,0.27643610646435557,993.3277210547149,545.8877947746412,75.95668721224658
560.0,0.75,0.0,1,303.9697419780226,4.1725236905621195,986.2575664576356,36.42516670014066,80.6435509776393
560.0,0.75,0.0,2,303.1268039995623,1.485692222417245e-10,989.0001611353144,1020153432271.3561,9.000161135314443
560.0,0.75,0.0,3,302.9505985318287,2.4855294061424384,989.5753943146711,60.94287152329661,81.72616517889261
560.0,0.75,0.0,4,302.9504093667427,2.485301013249847,989.576012214858,60.94843396265237,81.72638670352009
560.0,0.75,0.0,5,302.2389371846933,1.0453394175209625,991.9054797919756,144.5649767524587,80.30484888489963
560.0,0.75,0.0,6,302.23888382801533,1.0451962026838821,991.9056549010834,144.5847598048665,80.30442972263702
560.0,0.75,0.0,7,301.806193604792,0.2764795084530804,993.3277194190754,545.8021017423966,75.9573673821498
560.0,0.75,0.0,8,301.8061931077808,0.2764361097735799,993.3277210548769,545.8877882397143,75.9566872643988
600.0,0.25,0.0,1,299.71983525453123,10.488950006463503,1000.2423020999163,14.287408895544255,98.69276735882328
600.0,0.25,0.0,2,294.7815417618177,15.719526340278335,1016.9987449289856,9.37628575380466,117.2784365836603
600.0,0.25,0.0,3,289.30636066552296,14.320732431253624,1036.2456508400119,10.100962435208258,136.2020232800205
600.0,0.25,0.0,4,289.3055293405921,14.319619082248035,1036.248628511562,10.101718756584901,136.20467578067127
600.0,0.25,0.0,5,287.18347724788794,9.937293052200882,1043.9056622370665,14.449784047793749,142.30704867102136
600.0,0.25,0.0,6,287.1832302205417,9.936133937107291,1043.906560176843,14.451457278974111,142.30744374307585
600.0,0.25,0.0,7,285.4170713824634,7.372142327653727,1050.3662466575918,19.357810708010355,147.49768427001374
600.0,0.25,0.0,8,285.4167360222785,7.372485536064425,1050.3674808214448,19.356886807446994,147.49912571685866
600.0,0.35,0.0,1,297.7219694345961,10.566348693901567,1006.9544366152622,14.088214295181652,105.4658771248331
600.0,0.35,0.0,2,295.14637199446213,14.736367927601053,1015.741633461871,10.014216984961955,115.73546348863499
600.0,0.35,0.0,3,289.3063587640832,14.320726351218006,1036.245657650642,10.10096665730496,136.20202827534547
600.0,0.35,0.0,4,289.30553169205643,14.319614326369692,1036.2486200889725,10.101722193708033,136.2046658803894
600.0,0.35,0.0,5,287.18347921526987,9.937313580268965,1043.9056550856762,14.44975429705102,142.30705046135415
600.0,0.35,0.0,6,287.18323253647407,9.936160951465558,1043.906551758465,14.451418105003386,142.30744709725616
600.0,0.35,0.0,7,285.41707297141744,7.37213724230306,1050.366240810066,19.357824168928044,147.4976754025183
600.0,0.35,0.0,8,285.4167357518924,7.372482606525895,1050.3674818164977,19.35689448078523,147.4991249903084
600.0,0.45,0.0,1,295.2730751353568,11.387674767229289,1015.3057736895634,12.964590277247577,114.17818572736596
600.0,0.45,0.0,2,294.2756465791777,13.09090876852858,1018.747087925735,11.23969511141335,118.23954261876632
600.0,0.45,0.0,3,289.30637221525814,14.320734664018554,1036.2456094708475,10.100961263605859,136.2019824145908
600.0,0.45,0.0,4,289.3055326974861,14.319596530515232,1036.2486164876757,10.10173478285413,136.20465686675476
600.0,0.45,0.0,5,287.18347877196726,9.937315110592483,1043.9056566970714,14.449752049517368,142.3070527482567
600.0,0.45,0.0,6,287.18323373369003,9.936171737414773,1043.9065474066035,14.451402477892877,142.30744744166157
600.0,0.45,0.0,7,285.417072974937,7.37213502688018,1050.3662407971135,19.357829986445793,147.49767408440073
600.0,0.45,0.0,8,285.41673590848643,7.372482656625009,1050.367481240213,19.356894359867177,147.49912444115304
600.0,0.55,0.0,1,315.8574406284206,2.0093424947117144e-09,949.1385018619218,78597213133.0795,30.86149813807822
600.0,0.55,0.0,2,319.11972846587105,13.397712490485143,939.4356765130613,11.909485619000451,119.80539344360879
600.0,0.55,0.0,3,292.6877538093282,11.418060589372542,1024.274005653479,12.81687689071075,123.1961835251839
600.0,0.55,0.0,4,292.5081148833123,11.935059317486441,1024.903046261105,12.25415421500039,124.0202128460923
600.0,0.55,0.0,5,323.3006568506034,7.735513423371836,927.2868818776744,20.897168627087698,129.51224365017737
600.0,0.55,0.0,6,287.18347840464224,9.937306832985252,1043.90565803229,14.449764067432437,142.30705047143255
600.0,0.55,0.0,7,287.18323209995145,9.936154582213913,1043.9065533452178,14.451427346652807,142.3074459067065
600.0,0.55,0.0,8,285.41707306512996,7.372136405214468,1050.3662404651936,19.357826373318897,147.49767456308888
600.0,0.65,0.0,1,297.35128909511076,1.0924560842519587e-09,1008.2097135422488,136093017093.09311,28.209713542248778
600.0,0.65,0.0,2,316.7388955076342,12.10662760654921,946.4971377118862,13.081219056258528,112.33638010454906
600.0,0.65,0.0,3,318.86918765955306,3.486422313788868,940.1738066961782,45.73014382084741,113.22416763147527
600.0,0.65,0.0,4,290.9304584381543,10.084353308132544,1030.4608861149186,14.424844585895901,128.86977468752576
600.0,0.65,0.0,5,289.9635045911268,11.868700438108913,1033.897208625385,12.215469844537076,133.02810686606406
600.0,0.65,0.0,6,287.1834773328935,9.937293015741986,1043.9056619280732,14.449784105085607,142.30704834480872
