period_nm,fill,kx_norm,mode_index,freq_thz_real,freq_thz_imag,wavelength_nm,q_value,score
548.0,0.7,0.0,1,308.42565454750473,0.26955729051226973,972.0088247517198,572.0966662807916,70.416481077739
548.0,0.7,0.0,2,308.42565459492414,0.2695422807728414,972.0088246022768,572.1285241606528,70.41623939189378
548.0,0.7,0.0,3,308.84843808611816,1.0212324038579925,970.6782390021572,151.21359100991918,77.52585272671037
548.0,0.7,0.0,4,308.84847590465023,1.0213492760965222,970.6781201424931,151.19630626509723,77.52646804296356
548.0,0.7,0.0,5,309.54226133520405,2.4259590175925494,968.5025130554112,63.797916430258724,83.4494219908595
548.0,0.7,0.0,6,309.542274005452,2.426021824990125,968.5024734124675,63.796267374204675,83.44957389220303
548.0,0.7,0.0,7,310.5351441634583,4.083578368990186,965.4058924879573,38.02242985240534,88.7937088386759
548.0,0.7,0.0,8,310.53541984313756,4.0834962661767245,965.4050354430932,38.02322808707795,88.79447470965239
548.0,0.75,0.0,1,308.4256545541388,0.2695571275005651,972.0088247308124,572.0970122622564,70.41647847220568
548.0,0.75,0.0,2,308.4256546076464,0.26954212674859895,972.0088245621823,572.1288511151987,70.41623695012436
548.0,0.75,0.0,3,308.8484379150819,1.0212362652287947,970.6782395397065,151.21301917626693,77.52586861259675
548.0,0.75,0.0,4,308.84847599527643,1.0213529783398199,970.6781198576647,151.1957582467233,77.52648406903543
548.0,0.75,0.0,5,308.88088588541564,6.480084754779253e-10,970.5762696860849,238330899651.89645,9.423730313915144
548.0,0.75,0.0,6,309.54226178869595,2.425957460378303,968.502511636516,63.797957475401496,83.44942061567076
548.0,0.75,0.0,7,309.5422736576187,2.426020606356877,968.5024745007759,63.79629934851506,83.44957062723702
548.0,0.75,0.0,8,310.53514228127165,4.083591324129884,965.4058983393857,38.022308996290086,88.79371679152771
548.0,0.8,0.0,1,304.8030035681896,2.7136649629056664e-09,983.5613641941404,56160765557.77554,3.561364194140424
548.0,0.8,0.0,2,308.42565453836033,0.26955753627896706,972.0088247805386,572.096144659759,70.41648500869223
548.0,0.8,0.0,3,308.4256545815659,0.26954239747681996,972.0088246443754,572.1282764209475,70.41624123035186
548.0,0.8,0.0,4,308.84843848080345,1.0212293286295764,970.6782377617029,151.21404655272585,77.52584088372234
548.0,0.8,0.0,5,308.84847563006724,1.021343656907364,970.6781210054784,151.1971379766839,77.52644329005872
548.0,0.8,0.0,6,309.542260239544,2.425960144350955,968.502516483536,63.79788657293861,83.44942059522619
548.0,0.8,0.0,7,309.54227495258283,2.4260238832877628,968.5024704490645,63.79621344310288,83.44958052697906
548.0,0.8,0.0,8,310.53514659063,4.083572398195608,965.4058849422549,38.02248574408096,88.79371000040214
550.0,0.7,0.0,1,307.3051292442149,0.2705649176763575,975.5530561344955,567.8953721779353,66.90426056950943
550.0,0.7,0.0,2,307.30512989513136,0.27054532445510465,975.5530540681339,567.9365010540531,66.90394811671774
550.0,0.7,0.0,3,307.72948327478616,1.0247496004686785,974.207784089057,150.1486232022161,74.02700236833172
550.0,0.7,0.0,4,307.72952264352773,1.0249012240622661,974.2076594557942,150.1264294640125,74.02776898753149
550.0,0.7,0.0,5,308.4259645350697,2.4348266471598468,972.0078478214891,63.3363292813555,79.97562328045491
550.0,0.7,0.0,6,308.4259770595607,2.4349583828980683,972.0078083504183,63.33290524096648,79.97589754284708
550.0,0.7,0.0,7,309.4226605180596,4.097341396032346,968.8768673181983,37.75895521150478,85.35293299295554
550.0,0.7,0.0,8,309.42286689156657,4.097379763695877,968.8762211134789,37.75862682209179,85.35361696840489
550.0,0.75,0.0,1,307.30512925540074,0.270564693354178,975.5530560989855,567.8958430343465,66.90425700417553
550.0,0.75,0.0,2,307.30512991408614,0.27054505675519824,975.5530540079612,567.9370630529578,66.9039438793518
550.0,0.75,0.0,3,307.7294830939025,1.0247556277952812,974.2077846616972,150.14773998166257,74.02702734230871
550.0,0.75,0.0,4,307.7295227178695,1.0249062057528866,974.2076592204438,150.1256997911405,74.02779033133515
550.0,0.75,0.0,5,307.9049161901172,2.0247817541647376e-09,973.6527162654717,76034099862.06984,6.347283734528332
550.0,0.75,0.0,6,308.42596475877826,2.434824147695298,972.0078471164691,63.33639434509496,79.97561952408466
550.0,0.75,0.0,7,308.42597699917127,2.4349565743053114,972.0078085407364,63.33295226982942,79.97589412760692
550.0,0.75,0.0,8,309.4226558925606,4.0973652325677445,968.87688180175,37.75873498329206,85.3529438396006
550.0,0.8,0.0,1,307.3051292342242,0.2705651680483923,975.5530561662116,567.894846647926,66.90426455675347
550.0,0.8,0.0,2,307.30512988237075,0.27054544111898515,975.553054108643,567.9362561264131,66.9039499491424
550.0,0.8,0.0,3,307.72948366120363,1.0247468204690662,974.2077828657394,150.14903072367864,74.02699180438952
550.0,0.8,0.0,4,307.72952237023355,1.0248953805324141,974.2076603209867,150.12728528953548,74.02774336459017
550.0,0.8,0.0,5,303.8424962438352,3.3144508357780138e-09,986.6705997551276,45836024020.0264,6.670599755127569
550.0,0.8,0.0,6,308.42596392843717,2.4348278945588704,972.0078497332981,63.33629670862552,79.97562360214452
550.0,0.8,0.0,7,308.4259775193281,2.4349603596202476,972.0078069014564,63.33285392116809,79.97590251097705
550.0,0.8,0.0,8,309.42266962142673,4.097341980105017,968.8768388133644,37.758950939884215,85.352961989101
552.0,0.7,0.0,1,306.19272751098646,0.2715673351086479,979.0972517113203,563.751025852365,63.391874836997104
552.0,0.7,0.0,2,306.19272922538397,0.27153560855899694,979.0972462292766,563.8168983624427,63.39137288942958
552.0,0.7,0.0,3,306.6186432687981,1.0281355060328106,977.7372139018504,149.1139258734116,70.52760405345474
552.0,0.7,0.0,4,306.61866962566074,1.0283639009013816,977.7371298558087,149.08082117473364,70.52865238127286
552.0,0.7,0.0,5,307.31777937525544,2.443590592797233,975.5128994145615,62.88241988676628,76.50180812356525
552.0,0.7,0.0,6,307.3177932240379,2.443854476713572,975.5128554546404,62.87563276625832,76.50232085807774
552.0,0.7,0.0,7,308.3180262963682,4.110593531945487,972.3481354665489,37.502859854699075,81.91122066370528
552.0,0.7,0.0,8,308.31830117758784,4.111242860890828,972.3472685694484,37.49697009030271,81.91276966693437
552.0,0.75,0.0,1,306.19272751169586,0.27156726868504344,979.0972517090519,563.7511637435404,63.39187377699924
552.0,0.75,0.0,2,306.19272923248315,0.2715355496107995,979.0972462065761,563.8170207756569,63.39137196921092
552.0,0.75,0.0,3,306.6186430136723,1.0281373063852792,977.7372147153886,149.11366463866622,70.52761084838815
552.0,0.75,0.0,4,306.6186698433478,1.028365035706627,977.7371291616543,149.08065676924681,70.52865786480493
552.0,0.75,0.0,5,306.93600861256306,2.8489460921843924e-09,976.7262542936753,53868342657.41123,3.2737457063246893
552.0,0.75,0.0,6,307.3177796109564,2.4435899148571587,975.5128986663807,62.8824373808485,76.50180766352565
552.0,0.75,0.0,7,307.31779303877715,2.4438540530891295,975.5128560427103,62.87564362739157,76.50231951980793
552.0,0.75,0.0,8,308.3180241052797,4.110602585904399,972.3481423766244,37.50277698487906,81.91122335021664
552.0,0.8,0.0,1,306.1927274980101,0.27156756720845476,979.0972517528143,563.75054400914,63.39187850745987
552.0,0.8,0.0,2,306.1927292117147,0.2715358084096427,979.097246272986,563.8164833674315,63.391376042327266
552.0,0.8,0.0,3,306.61864344558404,1.0281307652411762,977.7372133381201,149.114613535399,70.52758458906786
552.0,0.8,0.0,4,306.61866955744676,1.02835887210982,977.7371300733276,149.08155016369736,70.5286309272791
552.0,0.8,0.0,5,307.3177792074785,2.443592407143164,975.5128999471326,62.88237316279105,76.50181081796477
552.0,0.8,0.0,6,307.31779323197003,2.443856451626323,975.5128554294618,62.87558195724999,76.50232439273695
552.0,0.8,0.0,7,308.31802793989164,4.110573727711705,972.3481302833394,37.50304073873499,81.91120490004579
552.0,0.8,0.0,8,302.88898713387863,3.91948263238418e-09,989.7766862929554,38638899000.508446,9.776686292955446
554.0,0.7,0.0,1,306.21753722202976,2.4523872507546147,979.0179253601302,62.432541420162075,73.02796450018562
554.0,0.7,0.0,2,306.2176864497729,2.4527565310539887,979.0174482595513,62.42317216829227,73.02909339542852
554.0,0.7,0.0,3,305.51586074916844,1.031829977329306,981.2664300467616,148.04564097853486,69.56247380028438
554.0,0.7,0.0,4,305.5158194299759,1.0315926677580212,981.2665627571939,148.0796776570538,69.56160815354846
554.0,0.7,0.0,5,305.08836257907836,0.27251948067774007,982.6414074456686,559.7551445135985,65.16142650848887
554.0,0.7,0.0,6,305.08836178724124,0.27257601206355747,982.6414099960507,559.639051649385,65.16232987630721
554.0,0.7,0.0,7,307.22140930279477,4.124443907044156,975.8189010340981,37.243979579657996,78.47053816731314
554.0,0.7,0.0,8,307.2217997141725,4.124928552527556,975.8176609827672,37.239651039037014,78.47228299030806
554.0,0.75,0.0,1,305.97373251935886,9.3908078282536e-10,979.7980223058273,162911294808.30856,0.2019776941726832
554.0,0.75,0.0,2,306.21753749902985,2.452385886283412,979.0179244745242,62.432576213179516,73.02796296551355
554.0,0.75,0.0,3,306.2176863163996,2.4527543957657776,979.0174486859629,62.423226484687426,73.02908919008362
554.0,0.75,0.0,4,305.5158609478813,1.0318352496351082,981.2664294085286,148.0448846150207,69.56249535016426
554.0,0.75,0.0,5,305.51581912777993,1.0315968513296718,981.2665637277978,148.07907698341012,69.56162674100445
554.0,0.75,0.0,6,305.0883625908578,0.272519332108358,982.6414074077287,559.7554496969592,65.16142410273841
554.0,0.75,0.0,7,305.08836180001754,0.27257576154958413,982.6414099549004,559.6395660157021,65.16232584354212
554.0,0.75,0.0,8,307.221404555903,4.124461401738026,975.8189161115198,37.2438210267214,78.4705415784667
554.0,0.8,0.0,1,306.2175371497194,2.4523889863331,979.0179255913158,62.43249722132924,73.02796734356909
554.0,0.8,0.0,2,306.21768636229916,2.4527586007498114,979.0174485392159,62.42311947630884,73.02909678168578
554.0,0.8,0.0,3,305.5158607764261,1.031824755114947,981.2664299592143,148.04639027215,69.56245173213324
554.0,0.8,0.0,4,305.5158195062027,1.0315881997521796,981.266562512366,148.0803190554125,69.5615890975529
554.0,0.8,0.0,5,305.08836256689017,0.27251967942631095,982.6414074849248,559.7547362618739,65.16142971522886
554.0,0.8,0.0,6,305.08836177262003,0.27257624709862244,982.6414100431434,559.6385690610712,65.16233366841257
554.0,0.8,0.0,7,307.22140970410953,4.124426588434048,975.8188997594128,37.244136017069295,78.47052120018787
554.0,0.8,0.0,8,301.9420552751787,3.718922341792932e-09,992.8807622600978,40595369777.15018,12.880762260097754
556.0,0.7,0.0,1,306.1327918764888,4.1380565288507425,979.2889424304246,36.989923861855836,75.03022319570499
556.0,0.7,0.0,2,306.13334117280976,4.138572187582164,979.2871852882225,36.985381346176176,75.03251370224822
556.0,0.7,0.0,3,305.12549568792724,2.461619223736725,982.5218221246851,61.976582882048746,74.59954585005079
556.0,0.7,0.0,4,305.12534046860037,2.461232615407425,982.522321940189,61.98628657821741,74.59936574232823
556.0,0.7,0.0,5,304.4210105311039,1.0353102699405534,984.7955549354865,147.01921702591798,73.12181388032829
556.0,0.7,0.0,6,304.4209567578968,1.0350290225140235,984.795728890709,147.05914043766452,73.12080865883911
556.0,0.7,0.0,7,303.991945649374,0.273518546035922,986.1855298817104,555.7062766951273,68.73707686007465
556.0,0.7,0.0,8,303.99194469285493,0.2735764196712595,986.1855329847705,555.588718242135,68.73799880084854
556.0,0.75,0.0,1,306.13279051346746,4.138078952368554,979.288946790597,36.989723255309464,75.03024238858252
556.0,0.75,0.0,2,305.12549570012095,2.461617058488907,982.5218220854206,61.97663739936582,74.59954199054349
556.0,0.75,0.0,3,305.1253406438367,2.4612304877580065,982.5223213759175,61.98634019883742,74.59936142123713
556.0,0.75,0.0,4,305.0175404321077,1.0423931933593179e-09,982.8695673543708,146306375739.623,2.8695673543708153
556.0,0.75,0.0,5,304.4210105655661,1.035315616293552,984.7955548240018,147.0184578377165,73.12183619530622
556.0,0.75,0.0,6,304.42095660030225,1.0350347105872983,984.7957294005244,147.05833219234165,73.12083303778948
556.0,0.75,0.0,7,303.99194566523136,0.2735183070743111,986.1855298302671,555.7067622216618,68.73707301415556
556.0,0.75,0.0,8,303.99194470735347,0.27357616965615894,986.1855329377356,555.5892260086509,68.73799478468888
556.0,0.8,0.0,1,306.13279207293755,4.138050952090013,979.2889418020042,36.98997373610377,75.03021796845078
556.0,0.8,0.0,2,306.1333412581234,4.1385747067094565,979.2871850153136,36.985358843688395,75.03251661747386
556.0,0.8,0.0,3,305.12549571413035,2.461618905129323,982.5218220403093,61.976590909001885,74.59954520319465
556.0,0.8,0.0,4,305.12534042474573,2.4612329660116607,982.5223220814037,61.98627773932151,74.59936650282242
556.0,0.8,0.0,5,304.4210105163778,1.035310804131384,984.7955549831249,147.0191411610855,73.12181616901296
556.0,0.8,0.0,6,304.42095680397836,1.035027726892471,984.795728741636,147.05932454484122,73.12080307272352
556.0,0.8,0.0,7,303.99194564663765,0.273518583574502,986.1855298905875,555.7062004231884,68.73707746503078
556.0,0.8,0.0,8,303.9919446952847,0.2735763849916854,986.185532976888,555.5887886750966,68.73799824240332
558.0,0.7,0.0,1,305.0518319928313,4.151650305423448,982.7590807815411,36.73862314394968,77.10785201965209
558.0,0.7,0.0,2,304.04113754993983,2.4702702211335312,986.0259714057872,61.540056417476606,78.1343925052319
558.0,0.7,0.0,3,304.0408434218214,2.4699134324010426,986.0269252840899,61.548886579044684,78.1347232746904
558.0,0.7,0.0,4,303.33393255906503,1.0384023974878034,988.3248322098766,146.05798931749283,76.67957903282313
558.0,0.7,0.0,5,303.33387562291455,1.0382230564178336,988.3250177196923,146.08319173218092,76.67901522892564
558.0,0.7,0.0,6,302.90339212823227,0.2745526165214019,989.729616078663,551.630860353903,72.3131305357766
558.0,0.7,0.0,7,302.9033909766195,0.27448363143094434,989.7296198415302,551.7694978704498,72.31204295390589
558.0,0.7,0.0,8,309.5940363939421,3.314919003156826e-10,968.3405452246178,466970740611.027,11.659454775382187
558.0,0.75,0.0,1,305.0518303737607,4.151669818967868,982.7590859975608,36.73845027126924,77.107877671339
558.0,0.75,0.0,2,304.0687208191424,9.992791813485932e-10,985.9365251130652,152144028663.13174,5.936525113065159
558.0,0.75,0.0,3,304.04113769167304,2.4702684065251512,986.0259709461368,61.540101652224536,78.13438885332013
558.0,0.75,0.0,4,304.04084340125837,2.4699124588600245,986.0269253507774,61.54891083499916,78.13472162985633
558.0,0.75,0.0,5,303.333932430799,1.0384073982190558,988.324832627794,146.05728587404073,76.67960036725088
558.0,0.75,0.0,6,303.333875671435,1.0382254565103461,988.3250175616026,146.0828540512733,76.67902510985026
558.0,0.75,0.0,7,302.9033921416888,0.27455241088117177,989.7296160346939,551.6312735508768,72.31312723874262
558.0,0.75,0.0,8,302.90339098281436,0.2744835194817317,989.7296198212887,551.7697229231537,72.31204116228835
558.0,0.8,0.0,1,305.0518272513202,4.151645652652305,982.7590960568571,36.73866374607813,77.10786249531331
558.0,0.8,0.0,2,305.0513289867198,4.15161718559487,982.7607012754606,36.7388556494534,77.1094450287262
558.0,0.8,0.0,3,304.0411376585945,2.470270775177551,986.0259710534128,61.540042636973986,78.1343931253618
558.0,0.8,0.0,4,304.0408432091089,2.46991530062803,986.0269259739322,61.54883998082847,78.134727252546
558.0,0.8,0.0,5,303.3339323720888,1.0384011966782722,988.324832819084,146.0581581292566,76.67957462251908
558.0,0.8,0.0,6,303.3338758721232,1.0382180732539337,988.3250169077187,146.08389301171988,76.67899356848214
558.0,0.8,0.0,7,302.9033921257004,0.27455268134974653,989.7296160869355,551.6307300962735,72.31313156955694
558.0,0.8,0.0,8,302.9033909620426,0.2744838426059159,989.72961988916,551.7690733383703,72.31204634300364
560.0,0.7,0.0,1,303.9697428469367,4.172519465037097,986.2575636383646,36.42520369215751,80.6435437478406
560.0,0.7,0.0,2,308.6302492200959,5.067304425305026e-10,971.3644685106893,304530992532.10736,8.635531489310665
560.0,0.7,0.0,3,302.95059846508894,2.485529698849343,989.5753945326737,60.94286433297048,81.72616590929624
560.0,0.7,0.0,4,302.9504094520785,2.485300462780897,989.5760119361117,60.948447479283004,81.72638546163219
560.0,0.7,0.0,5,302.23893726327924,1.0453381827563437,991.9054795340677,144.56514755174098,80.30484349593274
560.0,0.7,0.0,6,302.23888374500666,1.0451976110452328,991.905655173506,144.5845649430626,80.30443584819824
560.0,0.7,0.0,7,301.8061936015096,0.2764795406904327,993.3277194298787,545.8020380962557,75.9573678993852
560.0,0.7,0.0,8,301.8061931127575,0.27643604777833825,993.3277210384972,545.8879106728556,75.95668627397222
560.0,0.75,0.0,1,303.9697419780226,4.1725236905621195,986.2575664576356,36.42516670014066,80.6435509776393
560.0,0.75,0.0,2,303.1268039995623,1.485692222417245e-10,989.0001611353144,1020153432271.3561,9.000161135314443
560.0,0.75,0.0,3,302.9505985318287,2.4855294061424384,989.5753943146711,60.94287152329661,81.72616517889261
560.0,0.75,0.0,4,302.9504093667427,2.485301013249847,989.576012214858,60.94843396265237,81.72638670352009
560.0,0.75,0.0,5,302.2389371846933,1.0453394175209625,991.9054797919756,144.5649767524587,80.30484888489963
560.0,0.75,0.0,6,302.23888382801533,1.0451962026838821,991.9056549010834,144.5847598048665,80.30442972263702
560.0,0.75,0.0,7,301.806193604792,0.2764795084530804,993.3277194190754,545.8021017423966,75.9573673821498
560.0,0.75,0.0,8,301.8061931077808,0.2764361097735799,993.3277210548769,545.8877882397143,75.9566872643988
560.0,0.8,0.0,1,303.9697426085548,4.172512560113139,986.2575644118164,36.42526394220279,80.64353733773874
560.0,0.8,0.0,2,303.9692635920414,4.172565517296787,986.2591186270495,36.42474424092076,80.64515351683559
560.0,0.8,0.0,3,302.95059843639405,2.485530370786261,989.5753946264043,60.94284785193754,81.72616717750768
560.0,0.8,0.0,4,302.9504094426929,2.485300626092335,989.5760119667697,60.948443472415065,81.72638577780366
560.0,0.8,0.0,5,302.2389372782433,1.0453364262276132,991.9054794849577,144.56539047862154,80.30483614895624
560.0,0.8,0.0,6,302.23888376761556,1.045197052796475,991.9056550993068,144.584642177741,80.30443345407052
560.0,0.8,0.0,7,301.8061935965864,0.27647961673498234,993.3277194460823,545.8018879668093,75.95736911016837
560.0,0.8,0.0,8,301.8061931121652,0.2764360664449394,993.3277210404466,545.887873810198,75.95668656919152
